Time [s], Analyzer Name, Decoded Protocol Result
0.000171000000000,RX,0x19
0.000692250000000,RX,0x01
0.001213500000000,RX,0x01
0.001734750000000,RX,0x00
0.002256250000000,RX,0x03
0.002777500000000,RX,0xE8
0.003299500000000,RX,0x00
0.003820250000000,RX,0x0A
0.004341500000000,RX,0x01
0.004862750000000,RX,0x00
0.005384250000000,RX,0x00
0.005905500000000,RX,0x00
0.006426750000000,RX,0x00
0.006948250000000,RX,0x07
0.007469500000000,RX,0x0E
0.007990750000000,RX,0x08
0.008512250000000,RX,0x06
0.009033500000000,RX,0x0D
0.009554750000000,RX,0x9B
0.010076500000000,RX,0x0D
0.010597500000000,RX,0xFE
0.011119750000000,RX,0x14
0.011640250000000,RX,0x00
0.012161500000000,RX,0x00
0.012682750000000,RX,0x00
0.013204250000000,RX,0x70
0.013725500000000,RX,0x00
0.014246750000000,RX,0x6C
0.014768250000000,RX,0x02
0.015289500000000,RX,0xB3
0.015811250000000,RX,0x00
0.016332250000000,RX,0x00
0.016853500000000,RX,0x00
0.017374750000000,RX,0x00
0.017896250000000,RX,0x48
0.018417500000000,RX,0xC2
0.018939250000000,RX,0x0E
0.019460250000000,RX,0xEF
0.143760000000000,TX,0x5A
0.144283000000000,TX,0x5A
0.144806250000000,TX,0x00
0.145329250000000,TX,0x00
0.145852250000000,TX,0x01
0.146375500000000,TX,0x01
0.147867250000000,RX,0xAA
0.148385750000000,RX,0x55
0.148906750000000,RX,0xAA
0.149428250000000,RX,0xFF
0.149950250000000,RX,0x02
0.150470500000000,RX,0xCF
0.150992500000000,RX,0x0E
0.151513250000000,RX,0x05
0.152034500000000,RX,0x0E
0.152556000000000,RX,0x06
0.153077250000000,RX,0x0D
0.153598500000000,RX,0xFD
0.154120750000000,RX,0x0E
0.154641250000000,RX,0x06
0.155162500000000,RX,0x0E
0.155684000000000,RX,0x06
0.156205250000000,RX,0x0D
0.156726500000000,RX,0x9B
0.157248250000000,RX,0x0E
0.157769250000000,RX,0x08
0.158290500000000,RX,0x0E
0.158812000000000,RX,0x06
0.159333250000000,RX,0x0E
0.159854500000000,RX,0x07
0.160376000000000,RX,0x0E
0.160897250000000,RX,0x06
0.161418500000000,RX,0x0E
0.161940000000000,RX,0x07
0.162461250000000,RX,0x0E
0.162982500000000,RX,0x06
0.163504000000000,RX,0x0E
0.164025250000000,RX,0x07
0.164546500000000,RX,0x0E
0.165067750000000,RX,0x05
0.165589250000000,RX,0x0D
0.166110500000000,RX,0xD6
0.166632500000000,RX,0x0E
0.167153250000000,RX,0x06
0.167674500000000,RX,0x0E
0.168195750000000,RX,0x08
0.168717250000000,RX,0x0E
0.169238500000000,RX,0x08
0.169759750000000,RX,0x0E
0.170281250000000,RX,0x06
0.170802500000000,RX,0x0E
0.171323750000000,RX,0x03
0.171845250000000,RX,0x00
0.172366500000000,RX,0x00
0.172887750000000,RX,0x00
0.173409250000000,RX,0x00
0.173930500000000,RX,0x00
0.174451750000000,RX,0x00
0.174973250000000,RX,0x00
0.175494500000000,RX,0x00
0.176015750000000,RX,0x00
0.176537250000000,RX,0x00
0.177058500000000,RX,0x00
0.177579750000000,RX,0x00
0.178101250000000,RX,0x00
0.178622500000000,RX,0x00
0.179143750000000,RX,0x00
0.179665250000000,RX,0x00
0.180186500000000,RX,0x00
0.180707750000000,RX,0x00
0.181229250000000,RX,0x00
0.181750500000000,RX,0x00
0.182271750000000,RX,0x00
0.182793250000000,RX,0x00
0.183314500000000,RX,0x00
0.183835750000000,RX,0x00
0.184357250000000,RX,0x00
0.184878500000000,RX,0x00
0.185399750000000,RX,0x00
0.185921000000000,RX,0x00
0.186442500000000,RX,0x22
0.186963750000000,RX,0x01
0.187485000000000,RX,0xAB
0.188006750000000,RX,0x3F
0.188527750000000,RX,0x00
0.189049000000000,RX,0x00
0.189570500000000,RX,0x8D
0.190092000000000,RX,0x7C
0.190613000000000,RX,0x46
0.191134500000000,RX,0x00
0.191655750000000,RX,0x02
0.192177000000000,RX,0xBB
0.192698750000000,RX,0x30
0.193219750000000,RX,0x00
0.193741000000000,RX,0x08
0.194262500000000,RX,0x01
0.194783750000000,RX,0xCD
0.195305500000000,RX,0x00
0.195826500000000,RX,0x19
0.196347750000000,RX,0x00
0.196869000000000,RX,0x19
0.197390500000000,RX,0x00
0.197911750000000,RX,0x19
0.198433000000000,RX,0x00
0.198954500000000,RX,0x19
0.199475750000000,RX,0x00
0.199997000000000,RX,0x19
0.200518500000000,RX,0x00
0.201039750000000,RX,0x19
0.201561000000000,RX,0x01
0.202082500000000,RX,0x01
0.202603750000000,RX,0x00
0.203125000000000,RX,0x03
0.203646500000000,RX,0xE8
0.204168250000000,RX,0x00
0.204689000000000,RX,0x0A
0.205210250000000,RX,0x01
0.205731750000000,RX,0x00
0.206253000000000,RX,0x00
0.206774250000000,RX,0x00
0.207295750000000,RX,0x00
0.207817000000000,RX,0x07
0.208338250000000,RX,0x0E
0.208859750000000,RX,0x08
0.209381000000000,RX,0x06
0.209902250000000,RX,0x0D
0.210423750000000,RX,0x9B
0.210945250000000,RX,0x0D
0.211466250000000,RX,0xFE
0.211988500000000,RX,0x14
0.212509000000000,RX,0x00
0.213030250000000,RX,0x00
0.213551750000000,RX,0x00
0.214073000000000,RX,0x70
0.214594250000000,RX,0x00
0.215115750000000,RX,0x6C
0.215637000000000,RX,0x02
0.216158250000000,RX,0xB3
0.216680000000000,RX,0x00
0.217201000000000,RX,0x00
0.217722250000000,RX,0x00
0.218243750000000,RX,0x00
0.218765000000000,RX,0x4C
0.219286250000000,RX,0xC2
0.219808250000000,RX,0x0E
0.220329000000000,RX,0xF4
0.344572250000000,TX,0x5A
0.345095500000000,TX,0x5A
0.345618500000000,TX,0x00
0.346141500000000,TX,0x00
0.346664750000000,TX,0x01
0.347187750000000,TX,0x01
0.348631750000000,RX,0xAA
0.349150250000000,RX,0x55
0.349671250000000,RX,0xAA
0.350193000000000,RX,0xFF
0.350714750000000,RX,0x02
0.351235250000000,RX,0xCF
0.351757000000000,RX,0x0E
0.352277750000000,RX,0x05
0.352799250000000,RX,0x0E
0.353320500000000,RX,0x06
0.353841750000000,RX,0x0D
0.354363250000000,RX,0xFD
0.354885500000000,RX,0x0E
0.355405750000000,RX,0x06
0.355927250000000,RX,0x0E
0.356448500000000,RX,0x06
0.356969750000000,RX,0x0D
0.357491250000000,RX,0x9B
0.358012750000000,RX,0x0E
0.358533750000000,RX,0x08
0.359055250000000,RX,0x0E
0.359576500000000,RX,0x06
0.360097750000000,RX,0x0E
0.360619250000000,RX,0x07
0.361140500000000,RX,0x0E
0.361661750000000,RX,0x06
0.362183250000000,RX,0x0E
0.362704500000000,RX,0x07
0.363225750000000,RX,0x0E
0.363747250000000,RX,0x06
0.364268500000000,RX,0x0E
0.364789750000000,RX,0x07
0.365311250000000,RX,0x0E
0.365832500000000,RX,0x05
0.366353750000000,RX,0x0D
0.366875000000000,RX,0xD6
0.367397000000000,RX,0x0E
0.367917750000000,RX,0x06
0.368439000000000,RX,0x0E
0.368960500000000,RX,0x08
0.369481750000000,RX,0x0E
0.370003000000000,RX,0x08
0.370524500000000,RX,0x0E
0.371045750000000,RX,0x06
0.371567000000000,RX,0x0E
0.372088500000000,RX,0x03
0.372609750000000,RX,0x00
0.373131000000000,RX,0x00
0.373652500000000,RX,0x00
0.374173750000000,RX,0x00
0.374695000000000,RX,0x00
0.375216500000000,RX,0x00
0.375737750000000,RX,0x00
0.376259000000000,RX,0x00
0.376780500000000,RX,0x00
0.377301750000000,RX,0x00
0.377823000000000,RX,0x00
0.378344500000000,RX,0x00
0.378865750000000,RX,0x00
0.379387000000000,RX,0x00
0.379908500000000,RX,0x00
0.380429750000000,RX,0x00
0.380951000000000,RX,0x00
0.381472500000000,RX,0x00
0.381993750000000,RX,0x00
0.382515000000000,RX,0x00
0.383036500000000,RX,0x00
0.383557750000000,RX,0x00
0.384079000000000,RX,0x00
0.384600250000000,RX,0x00
0.385121750000000,RX,0x00
0.385643000000000,RX,0x00
0.386164250000000,RX,0x00
0.386685750000000,RX,0x00
0.387207000000000,RX,0x22
0.387728250000000,RX,0x01
0.388249750000000,RX,0xAB
0.388771250000000,RX,0x3F
0.389292250000000,RX,0x00
0.389813750000000,RX,0x00
0.390335000000000,RX,0x8D
0.390856750000000,RX,0x7C
0.391377750000000,RX,0x46
0.391899000000000,RX,0x00
0.392420250000000,RX,0x02
0.392941750000000,RX,0xBB
0.393463250000000,RX,0x30
0.393984250000000,RX,0x00
0.394505750000000,RX,0x08
0.395027000000000,RX,0x01
0.395548250000000,RX,0xCD
0.396070250000000,RX,0x00
0.396591000000000,RX,0x19
0.397112250000000,RX,0x00
0.397633750000000,RX,0x19
0.398155000000000,RX,0x00
0.398676250000000,RX,0x19
0.399197750000000,RX,0x00
0.399719000000000,RX,0x19
0.400240250000000,RX,0x00
0.400761750000000,RX,0x19
0.401283000000000,RX,0x00
0.401804250000000,RX,0x19
0.402325750000000,RX,0x01
0.402847000000000,RX,0x01
0.403368250000000,RX,0x00
0.403889500000000,RX,0x03
0.404411000000000,RX,0xE8
0.404933000000000,RX,0x00
0.405453500000000,RX,0x0A
0.405975000000000,RX,0x01
0.406496250000000,RX,0x00
0.407017500000000,RX,0x00
0.407539000000000,RX,0x00
0.408060250000000,RX,0x00
0.408581500000000,RX,0x07
0.409103000000000,RX,0x0E
0.409624250000000,RX,0x08
0.410145500000000,RX,0x06
0.410667000000000,RX,0x0D
0.411188250000000,RX,0x9B
0.411710000000000,RX,0x0D
0.412231000000000,RX,0xFE
0.412753250000000,RX,0x14
0.413273500000000,RX,0x00
0.413795000000000,RX,0x00
0.414316250000000,RX,0x00
0.414837500000000,RX,0x70
0.415359000000000,RX,0x00
0.415880250000000,RX,0x6C
0.416401500000000,RX,0x02
0.416923000000000,RX,0xB3
0.417444500000000,RX,0x00
0.417965500000000,RX,0x00
0.418487000000000,RX,0x00
0.419008250000000,RX,0x00
0.419529500000000,RX,0x50
0.420051000000000,RX,0xC2
0.420572750000000,RX,0x0E
0.421093500000000,RX,0xF8
0.545379500000000,TX,0x5A
0.545902500000000,TX,0x5A
0.546425750000000,TX,0x00
0.546948750000000,TX,0x00
0.547472000000000,TX,0x01
0.547995000000000,TX,0x01
0.549292000000000,RX,0xAA
0.549810500000000,RX,0x55
0.550331500000000,RX,0xAA
0.550853250000000,RX,0xFF
0.551375250000000,RX,0x02
0.551895500000000,RX,0xCF
0.552417250000000,RX,0x0E
0.552938250000000,RX,0x05
0.553459500000000,RX,0x0E
0.553980750000000,RX,0x06
0.554502250000000,RX,0x0D
0.555023500000000,RX,0xFD
0.555545750000000,RX,0x0E
0.556066250000000,RX,0x06
0.556587500000000,RX,0x0E
0.557108750000000,RX,0x06
0.557630250000000,RX,0x0D
0.558151500000000,RX,0x9B
0.558673250000000,RX,0x0E
0.559194000000000,RX,0x08
0.559715500000000,RX,0x0E
0.560236750000000,RX,0x06
0.560758000000000,RX,0x0E
0.561279500000000,RX,0x07
0.561800750000000,RX,0x0E
0.562322000000000,RX,0x06
0.562843500000000,RX,0x0E
0.563364750000000,RX,0x07
0.563886000000000,RX,0x0E
0.564407500000000,RX,0x06
0.564928750000000,RX,0x0E
0.565450000000000,RX,0x07
0.565971500000000,RX,0x0E
0.566492750000000,RX,0x05
0.567014000000000,RX,0x0D
0.567535500000000,RX,0xD6
0.568057250000000,RX,0x0E
0.568578000000000,RX,0x06
0.569099500000000,RX,0x0E
0.569620750000000,RX,0x08
0.570142000000000,RX,0x0E
0.570663500000000,RX,0x08
0.571184750000000,RX,0x0E
0.571706000000000,RX,0x06
0.572227500000000,RX,0x0E
0.572748750000000,RX,0x03
0.573270000000000,RX,0x00
0.573791500000000,RX,0x00
0.574312750000000,RX,0x00
0.574834000000000,RX,0x00
0.575355500000000,RX,0x00
0.575876750000000,RX,0x00
0.576398000000000,RX,0x00
0.576919250000000,RX,0x00
0.577440750000000,RX,0x00
0.577962000000000,RX,0x00
0.578483250000000,RX,0x00
0.579004750000000,RX,0x00
0.579526000000000,RX,0x00
0.580047250000000,RX,0x00
0.580568750000000,RX,0x00
0.581090000000000,RX,0x00
0.581611250000000,RX,0x00
0.582132750000000,RX,0x00
0.582654000000000,RX,0x00
0.583175250000000,RX,0x00
0.583696750000000,RX,0x00
0.584218000000000,RX,0x00
0.584739250000000,RX,0x00
0.585260750000000,RX,0x00
0.585782000000000,RX,0x00
0.586303250000000,RX,0x00
0.586824750000000,RX,0x00
0.587346000000000,RX,0x00
0.587867250000000,RX,0x22
0.588388750000000,RX,0x01
0.588910000000000,RX,0xAB
0.589431750000000,RX,0x3F
0.589952750000000,RX,0x00
0.590474000000000,RX,0x00
0.590995250000000,RX,0x8D
0.591517000000000,RX,0x7C
0.592038000000000,RX,0x46
0.592559250000000,RX,0x00
0.593080750000000,RX,0x02
0.593602000000000,RX,0xBB
0.594123750000000,RX,0x30
0.594644750000000,RX,0x00
0.595166000000000,RX,0x08
0.595687250000000,RX,0x01
0.596208500000000,RX,0xCD
0.596730500000000,RX,0x00
0.597251250000000,RX,0x19
0.597772500000000,RX,0x00
0.598294000000000,RX,0x19
0.598815250000000,RX,0x00
0.599336500000000,RX,0x19
0.599858000000000,RX,0x00
0.600379250000000,RX,0x19
0.600900500000000,RX,0x00
0.601422000000000,RX,0x19
0.601943250000000,RX,0x00
0.602464500000000,RX,0x19
0.602986000000000,RX,0x01
0.603507250000000,RX,0x01
0.604028500000000,RX,0x00
0.604550000000000,RX,0x03
0.605071250000000,RX,0xE8
0.605593250000000,RX,0x00
0.606114000000000,RX,0x0A
0.606635250000000,RX,0x01
0.607156500000000,RX,0x00
0.607678000000000,RX,0x00
0.608199250000000,RX,0x00
0.608720500000000,RX,0x00
0.609242000000000,RX,0x07
0.609763250000000,RX,0x0E
0.610284500000000,RX,0x08
0.610806000000000,RX,0x06
0.611327250000000,RX,0x0D
0.611848500000000,RX,0x9B
0.612370250000000,RX,0x0D
0.612891250000000,RX,0xFE
0.613413500000000,RX,0x14
0.613934000000000,RX,0x00
0.614455250000000,RX,0x00
0.614976500000000,RX,0x00
0.615497750000000,RX,0x70
0.616019250000000,RX,0x00
0.616540500000000,RX,0x6C
0.617061750000000,RX,0x02
0.617583250000000,RX,0xB3
0.618105000000000,RX,0x00
0.618625750000000,RX,0x00
0.619147250000000,RX,0x00
0.619668500000000,RX,0x00
0.620189750000000,RX,0x55
0.620711250000000,RX,0x22
0.621232500000000,RX,0x0E
0.621753750000000,RX,0x5D
0.746251250000000,TX,0x5A
0.746774500000000,TX,0x5A
0.747297500000000,TX,0x00
0.747820750000000,TX,0x00
0.748343750000000,TX,0x01
0.748866750000000,TX,0x01
0.750317250000000,RX,0xAA
0.750835750000000,RX,0x55
0.751356750000000,RX,0xAA
0.751878500000000,RX,0xFF
0.752400500000000,RX,0x02
0.752920750000000,RX,0xCF
0.753442500000000,RX,0x0E
0.753963500000000,RX,0x05
0.754484750000000,RX,0x0E
0.755006000000000,RX,0x06
0.755527500000000,RX,0x0D
0.756048750000000,RX,0xFD
0.756571000000000,RX,0x0E
0.757091500000000,RX,0x06
0.757612750000000,RX,0x0E
0.758134000000000,RX,0x06
0.758655250000000,RX,0x0D
0.759176750000000,RX,0x9B
0.759698500000000,RX,0x0E
0.760219250000000,RX,0x08
0.760740750000000,RX,0x0E
0.761262000000000,RX,0x06
0.761783250000000,RX,0x0E
0.762304750000000,RX,0x07
0.762826000000000,RX,0x0E
0.763347250000000,RX,0x06
0.763868750000000,RX,0x0E
0.764390000000000,RX,0x07
0.764911250000000,RX,0x0E
0.765432750000000,RX,0x06
0.765954000000000,RX,0x0E
0.766475250000000,RX,0x07
0.766996750000000,RX,0x0E
0.767518000000000,RX,0x05
0.768039250000000,RX,0x0D
0.768560750000000,RX,0xD6
0.769082500000000,RX,0x0E
0.769603250000000,RX,0x06
0.770124750000000,RX,0x0E
0.770646000000000,RX,0x08
0.771167250000000,RX,0x0E
0.771688750000000,RX,0x08
0.772210000000000,RX,0x0E
0.772731250000000,RX,0x06
0.773252750000000,RX,0x0E
0.773774000000000,RX,0x03
0.774295250000000,RX,0x00
0.774816750000000,RX,0x00
0.775338000000000,RX,0x00
0.775859250000000,RX,0x00
0.776380750000000,RX,0x00
0.776902000000000,RX,0x00
0.777423250000000,RX,0x00
0.777944750000000,RX,0x00
0.778466000000000,RX,0x00
0.778987250000000,RX,0x00
0.779508500000000,RX,0x00
0.780030000000000,RX,0x00
0.780551250000000,RX,0x00
0.781072500000000,RX,0x00
0.781594000000000,RX,0x00
0.782115250000000,RX,0x00
0.782636500000000,RX,0x00
0.783158000000000,RX,0x00
0.783679250000000,RX,0x00
0.784200500000000,RX,0x00
0.784722000000000,RX,0x00
0.785243250000000,RX,0x00
0.785764500000000,RX,0x00
0.786286000000000,RX,0x00
0.786807250000000,RX,0x00
0.787328500000000,RX,0x00
0.787850000000000,RX,0x00
0.788371250000000,RX,0x00
0.788892500000000,RX,0x22
0.789414000000000,RX,0x01
0.789935250000000,RX,0xAB
0.790457000000000,RX,0x3F
0.790978000000000,RX,0x00
0.791499250000000,RX,0x00
0.792020500000000,RX,0x8D
0.792542250000000,RX,0x7C
0.793063250000000,RX,0x46
0.793584500000000,RX,0x00
0.794106000000000,RX,0x02
0.794627250000000,RX,0xBB
0.795149000000000,RX,0x30
0.795670000000000,RX,0x00
0.796191250000000,RX,0x08
0.796712500000000,RX,0x01
0.797234000000000,RX,0xCD
0.797755750000000,RX,0x00
0.798276500000000,RX,0x19
0.798797750000000,RX,0x00
0.799319250000000,RX,0x19
0.799840500000000,RX,0x00
0.800361750000000,RX,0x19
0.800883250000000,RX,0x00
0.801404500000000,RX,0x19
0.801925750000000,RX,0x00
0.802447250000000,RX,0x19
0.802968500000000,RX,0x00
0.803489750000000,RX,0x19
0.804011250000000,RX,0x01
0.804532500000000,RX,0x01
0.805053750000000,RX,0x00
0.805575250000000,RX,0x03
0.806096500000000,RX,0xE8
0.806618500000000,RX,0x00
0.807139250000000,RX,0x0A
0.807660500000000,RX,0x01
0.808181750000000,RX,0x00
0.808703250000000,RX,0x00
0.809224500000000,RX,0x00
0.809745750000000,RX,0x00
0.810267250000000,RX,0x07
0.810788500000000,RX,0x0E
0.811309750000000,RX,0x08
0.811831250000000,RX,0x06
0.812352500000000,RX,0x0D
0.812873750000000,RX,0x9B
0.813395500000000,RX,0x0D
0.813916500000000,RX,0xFE
0.814438750000000,RX,0x14
0.814959250000000,RX,0x00
0.815480500000000,RX,0x00
0.816001750000000,RX,0x00
0.816523000000000,RX,0x70
0.817044500000000,RX,0x00
0.817565750000000,RX,0x6C
0.818087000000000,RX,0x02
0.818608500000000,RX,0xB3
0.819130000000000,RX,0x00
0.819651000000000,RX,0x00
0.820172500000000,RX,0x00
0.820693750000000,RX,0x00
0.821215000000000,RX,0x58
0.821736500000000,RX,0xC2
0.822258250000000,RX,0x0F
0.822779000000000,RX,0x00
0.947068500000000,TX,0x5A
0.947591500000000,TX,0x5A
0.948114750000000,TX,0x00
0.948637750000000,TX,0x00
0.949160750000000,TX,0x01
0.949684000000000,TX,0x01
0.951186000000000,RX,0xAA
0.951704500000000,RX,0x55
0.952225500000000,RX,0xAA
0.952747250000000,RX,0xFF
0.953269250000000,RX,0x02
0.953789500000000,RX,0xCF
0.954311500000000,RX,0x0E
0.954832250000000,RX,0x05
0.955353500000000,RX,0x0E
0.955875000000000,RX,0x06
0.956396250000000,RX,0x0D
0.956917500000000,RX,0xFD
0.957439750000000,RX,0x0E
0.957960250000000,RX,0x06
0.958481500000000,RX,0x0E
0.959003000000000,RX,0x06
0.959524250000000,RX,0x0D
0.960045500000000,RX,0x9B
0.960567250000000,RX,0x0E
0.961088250000000,RX,0x08
0.961609500000000,RX,0x0E
0.962130750000000,RX,0x06
0.962652250000000,RX,0x0E
0.963173500000000,RX,0x07
0.963694750000000,RX,0x0E
0.964216250000000,RX,0x06
0.964737500000000,RX,0x0E
0.965258750000000,RX,0x07
0.965780250000000,RX,0x0E
0.966301500000000,RX,0x06
0.966822750000000,RX,0x0E
0.967344250000000,RX,0x07
0.967865500000000,RX,0x0E
0.968386750000000,RX,0x05
0.968908250000000,RX,0x0D
0.969429500000000,RX,0xD6
0.969951250000000,RX,0x0E
0.970472250000000,RX,0x06
0.970993500000000,RX,0x0E
0.971514750000000,RX,0x08
0.972036250000000,RX,0x0E
0.972557500000000,RX,0x08
0.973078750000000,RX,0x0E
0.973600250000000,RX,0x06
0.974121500000000,RX,0x0E
0.974642750000000,RX,0x03
0.975164250000000,RX,0x00
0.975685500000000,RX,0x00
0.976206750000000,RX,0x00
0.976728250000000,RX,0x00
0.977249500000000,RX,0x00
0.977770750000000,RX,0x00
0.978292250000000,RX,0x00
0.978813500000000,RX,0x00
0.979334750000000,RX,0x00
0.979856250000000,RX,0x00
0.980377500000000,RX,0x00
0.980898750000000,RX,0x00
0.981420000000000,RX,0x00
0.981941500000000,RX,0x00
0.982462750000000,RX,0x00
0.982984000000000,RX,0x00
0.983505500000000,RX,0x00
0.984026750000000,RX,0x00
0.984548000000000,RX,0x00
0.985069500000000,RX,0x00
0.985590750000000,RX,0x00
0.986112000000000,RX,0x00
0.986633500000000,RX,0x00
0.987154750000000,RX,0x00
0.987676000000000,RX,0x00
0.988197500000000,RX,0x00
0.988718750000000,RX,0x00
0.989240000000000,RX,0x00
0.989761500000000,RX,0x22
0.990282750000000,RX,0x01
0.990804000000000,RX,0xAB
0.991325750000000,RX,0x3F
0.991846750000000,RX,0x00
0.992368000000000,RX,0x00
0.992889500000000,RX,0x8D
0.993411000000000,RX,0x7C
0.993932000000000,RX,0x46
0.994453500000000,RX,0x00
0.994974750000000,RX,0x02
0.995496000000000,RX,0xBB
0.996017750000000,RX,0x30
0.996538750000000,RX,0x00
0.997060000000000,RX,0x08
0.997581500000000,RX,0x01
0.998102750000000,RX,0xCD
0.998624500000000,RX,0x00
0.999145250000000,RX,0x19
0.999666750000000,RX,0x00
1.000188000000000,RX,0x19
1.000709250000000,RX,0x00
1.001230750000000,RX,0x19
1.001752000000000,RX,0x00
1.002273250000000,RX,0x19
1.002794750000000,RX,0x00
1.003316000000000,RX,0x19
1.003837250000000,RX,0x00
1.004358750000000,RX,0x19
1.004880000000000,RX,0x01
1.005401250000000,RX,0x01
1.005922750000000,RX,0x00
1.006444000000000,RX,0x03
1.006965250000000,RX,0xE8
1.007487250000000,RX,0x00
1.008008000000000,RX,0x0A
1.008529250000000,RX,0x01
1.009050750000000,RX,0x00
1.009572000000000,RX,0x00
1.010093250000000,RX,0x00
1.010614750000000,RX,0x00
1.011136000000000,RX,0x07
1.011657250000000,RX,0x0E
1.012178750000000,RX,0x08
1.012700000000000,RX,0x06
1.013221250000000,RX,0x0D
1.013742750000000,RX,0x9B
1.014264250000000,RX,0x0D
1.014785250000000,RX,0xFE
1.015307500000000,RX,0x14
1.015828000000000,RX,0x00
1.016349250000000,RX,0x00
1.016870500000000,RX,0x00
1.017392000000000,RX,0x70
1.017913250000000,RX,0x00
1.018434500000000,RX,0x6C
1.018956000000000,RX,0x02
1.019477250000000,RX,0xB3
1.019999000000000,RX,0x00
1.020520000000000,RX,0x00
1.021041250000000,RX,0x00
1.021562500000000,RX,0x00
1.022084000000000,RX,0x5C
1.022605250000000,RX,0xC2
1.023127250000000,RX,0x0F
